
T1178 000:441 SEGGER J-Link V4.36l Log File (0001ms, 0440ms total)
T1178 000:441 DLL Compiled: Dec  2 2011 18:52:36 (0001ms, 0440ms total)
T1178 000:441 Logging started @ 2012-04-11 18:06 (0001ms, 0440ms total)
T1178 000:442 JLINK_SetWarnOutHandler(...) (0000ms, 0441ms total)
T1178 000:442 JLINK_OpenEx(...)
Firmware: J-Link ARM V8 compiled Sep 22 2011 16:23:23
Hardware: V8.00
S/N: 20100214
Feature(s): RDI,FlashDL,FlashBP,JFlash,GDBFull  returns O.K. (0183ms, 0441ms total)
T1178 000:625 JLINK_SetErrorOutHandler(...) (0000ms, 0624ms total)
T1178 000:625 JLINK_ExecCommand("Device = STM32F407IG", ...)
                JLINK_ExecCommand("map ram 0x20000000 - 0x2001FFFF", ...)  returns 0x00 (0000ms, 0000ms total)
                JLINK_AddMirrorAreaEx(Addr = 0x00000000, Size = 0x00000000) (0000ms, 0000ms total)
              Device "STM32F407IG" selected (1024 KB flash, 128 KB RAM).  returns 0x00 (0006ms, 0624ms total)
T1178 000:633 JLINK_ExecCommand("ProjectFile = "E:\Mywork\ARM\STM32F4x7\STM32F4x7VGT6-DK-A-CD\Code\STM32_USB-Host-Device_Lib_V2.1.0\Project\USB_Device_Examples\MSC\MDK-ARM\JLinkSettings.ini"", ...)  returns 0x00 (0002ms, 0630ms total)
T1178 000:637 JLINK_ExecCommand("DisableConnectionTimeout", ...)  returns 0x00 (0000ms, 0632ms total)
T1178 000:637 JLINK_TIF_Select(JLINKARM_TIF_JTAG)  returns 0x00 (0000ms, 0632ms total)
T1178 000:637 JLINK_SetSpeed(2000) (0001ms, 0632ms total)
T1178 000:638 JLINK_GetHardwareVersion()  returns 0x13880 (0000ms, 0633ms total)
T1178 000:638 JLINK_GetDLLVersion()  returns 43612 (0000ms, 0633ms total)
T1178 000:638 JLINK_GetFirmwareString(...) (0000ms, 0633ms total)
T1178 000:642 JLINK_GetDLLVersion()  returns 43612 (0000ms, 0633ms total)
T1178 000:642 JLINK_GetCompileDateTime() (0000ms, 0633ms total)
T1178 000:644 JLINK_GetFirmwareString(...) (0000ms, 0633ms total)
T1178 000:646 JLINK_GetHardwareVersion()  returns 0x13880 (0000ms, 0633ms total)
T1178 000:652 JLINK_GetIdData(...) >0x2F8 JTAG>TotalIRLen = 9, IRPrint = 0x0011 >0x30 JTAG> >0x210 JTAG> >0x80 JTAG> >0x40 JTAG> >0x40 JTAG> >0x50 JTAG> >0x40 JTAG> >0x40 JTAG> >0x40 JTAG> >0x50 JTAG> >0x40 JTAG> >0x50 JTAG> >0x40 JTAG> >0x40 JTAG> >0x40 JTAG> >0x30 JTAG> >0x40 JTAG> >0x50 JTAG> >0x40 JTAG> >0x38 JTAG> >0x80 JTAG> >0x40 JTAG> >0x40 JTAG> >0x50 JTAG> >0x40 JTAG> >0x40 JTAG> >0x40 JTAG> >0x50 JTAG> >0x40 JTAG> >0x40 JTAG> >0x30 JTAG> >0x40 JTAG> >0x40 JTAG> >0x40 JTAG> >0x40 JTAG>
 >0x40 JTAG> >0x50 JTAG> >0x40 JTAG> >0x80 JTAG> >0x40 JTAG> >0x30 JTAG> >0x40 JTAG> >0x40 JTAG> >0x40 JTAG> >0x40 JTAG> >0x40 JTAG> >0x50 JTAG> >0x40 JTAG> >0x80 JTAG> >0x40 JTAG> >0x30 JTAG> >0x40 JTAG> >0x50 JTAG> >0x40 JTAG> >0x40 JTAG> >0x40 JTAG> >0x30 JTAG> >0x40 JTAG> >0x50 JTAG> >0x40 JTAG>Found Cortex-M4 r0p1, Little endian. >0x50 JTAG> >0x50 JTAG> >0x40 JTAG> >0x40 JTAG> >0x30 JTAG> >0x30 JTAG> >0x50 JTAG> >0x40 JTAG> >0x80 JTAG> >0x40 JTAG> >0x30 JTAG> >0x40 JTAG> >0x50 JTAG> >0x40 JTAG>
 >0x40 JTAG> >0x40 JTAG> >0x30 JTAG> >0x30 JTAG> >0x50 JTAG> >0x40 JTAG> >0x80 JTAG> >0x40 JTAG> >0x30 JTAG> >0x40 JTAG> >0x50 JTAG> >0x40 JTAG>TPIU fitted. >0x40 JTAG> >0x40 JTAG> >0x30 JTAG> >0x40 JTAG> >0x50 JTAG> >0x40 JTAG>ETM fitted. >0x40 JTAG> >0x40 JTAG> >0x30 JTAG> >0x40 JTAG> >0x50 JTAG> >0x40 JTAG> >0x40 JTAG> >0x40 JTAG> >0x30 JTAG> >0x40 JTAG> >0x50 JTAG> >0x40 JTAG>  FPUnit: 6 code (BP) slots and 2 literal slots >0x40 JTAG> >0x40 JTAG> >0x30 JTAG> >0x40 JTAG> >0x50 JTAG> >0x40 JTAG>
 >0x40 JTAG> >0x40 JTAG> >0x30 JTAG> >0x30 JTAG> >0x50 JTAG> >0x40 JTAG> >0x80 JTAG> >0x40 JTAG> >0x30 JTAG> >0x40 JTAG> >0x50 JTAG> >0x40 JTAG> ScanLen=9 NumDevices=2 aId[0]=0x4BA00477 aIrRead[0]=0 aScanLen[0]=0 aScanRead[0]=0 (0080ms, 0633ms total)
T1178 000:732 JLINK_JTAG_GetDeviceID(DeviceIndex = 0)  returns 0x4BA00477 (0000ms, 0713ms total)
T1178 000:732 JLINK_JTAG_GetDeviceInfo(DeviceIndex = 0)  returns 0x00 (0000ms, 0713ms total)
T1178 000:732 JLINK_JTAG_GetDeviceID(DeviceIndex = 1)  returns 0x6413041 (0000ms, 0713ms total)
T1178 000:732 JLINK_JTAG_GetDeviceInfo(DeviceIndex = 1)  returns 0x00 (0000ms, 0713ms total)
T1178 000:732 JLINK_GetDebugInfo(0x100) -- Value=0xE00FF003  returns 0x00 (0000ms, 0713ms total)
T1178 000:734 JLINK_ReadMem (0xE00FFFF0, 0x0010 Bytes, ...) -- CPU is running -- CPU_ReadMem(16 bytes @ 0xE00FFFF0) -- Data:  0D 00 00 00 10 00 00 00 05 00 00 00 B1 00 00 00  returns 0x00 (0004ms, 0713ms total)
T1178 000:739 JLINK_ReadMem (0xE00FFFD0, 0x0020 Bytes, ...) -- CPU is running -- CPU_ReadMem(32 bytes @ 0xE00FFFD0) -- Data:  00 00 00 00 00 00 00 00 00 00 00 00 00 00 00 00 ...  returns 0x00 (0001ms, 0718ms total)
T1178 000:740 JLINK_ReadMem (0xE00FF000, 0x0018 Bytes, ...) -- CPU is running -- CPU_ReadMem(24 bytes @ 0xE00FF000) -- Data:  03 F0 F0 FF 03 20 F0 FF 03 30 F0 FF 03 10 F0 FF ...  returns 0x00 (0001ms, 0719ms total)
T1178 000:741 JLINK_ReadMemU32(0xE000ED00, 0x0001 Items, ...) -- CPU is running -- CPU_ReadMem(4 bytes @ 0xE000ED00) -- Data:  41 C2 0F 41  returns 0x01 (0001ms, 0720ms total)
T1178 000:742 JLINK_ReadMemU32(0xE000EF40, 0x0001 Items, ...) -- CPU is running -- CPU_ReadMem(4 bytes @ 0xE000EF40) -- Data:  21 00 11 10  returns 0x01 (0000ms, 0721ms total)
T1178 000:742 JLINK_ReadMemU32(0xE000EF44, 0x0001 Items, ...) -- CPU is running -- CPU_ReadMem(4 bytes @ 0xE000EF44) -- Data:  11 00 00 11  returns 0x01 (0001ms, 0721ms total)
T1178 000:743 JLINK_SetResetType(JLINKARM_RESET_TYPE_NORMAL)  returns JLINKARM_RESET_TYPE_NORMAL (0000ms, 0722ms total)
T1178 000:743 JLINK_Reset() >0x308 JTAG>TotalIRLen = 9, IRPrint = 0x0011 >0x30 JTAG> >0x210 JTAG> >0x80 JTAG> >0x40 JTAG> >0x40 JTAG> >0x50 JTAG> >0x40 JTAG> >0x40 JTAG> >0x40 JTAG> >0x50 JTAG> >0x40 JTAG> >0x50 JTAG> >0x40 JTAG> >0x40 JTAG> >0x40 JTAG> >0x30 JTAG> >0x40 JTAG> >0x50 JTAG> >0x40 JTAG> >0x38 JTAG> >0x80 JTAG> >0x40 JTAG> >0x40 JTAG> >0x50 JTAG> >0x40 JTAG> >0x40 JTAG> >0x40 JTAG> >0x50 JTAG> >0x40 JTAG> >0x40 JTAG> >0x30 JTAG> >0x40 JTAG> >0x40 JTAG> >0x40 JTAG> >0x40 JTAG> >0x40 JTAG>
 >0x50 JTAG> >0x40 JTAG> >0x80 JTAG> >0x40 JTAG> >0x30 JTAG> >0x40 JTAG> >0x40 JTAG> >0x40 JTAG> >0x40 JTAG> >0x40 JTAG> >0x50 JTAG> >0x40 JTAG> >0x80 JTAG> >0x40 JTAG> >0x30 JTAG> >0x40 JTAG> >0x50 JTAG> >0x40 JTAG> >0x40 JTAG> >0x40 JTAG> >0x30 JTAG> >0x40 JTAG> >0x50 JTAG> >0x40 JTAG>Found Cortex-M4 r0p1, Little endian. >0x50 JTAG> >0x50 JTAG> >0x40 JTAG> >0x40 JTAG> >0x30 JTAG> >0x30 JTAG> >0x50 JTAG> >0x40 JTAG> >0x80 JTAG> >0x40 JTAG> >0x30 JTAG> >0x40 JTAG> >0x50 JTAG> >0x40 JTAG> >0x40 JTAG>
 >0x40 JTAG> >0x30 JTAG> >0x40 JTAG> >0x50 JTAG> >0x40 JTAG>TPIU fitted. >0x40 JTAG> >0x40 JTAG> >0x30 JTAG> >0x40 JTAG> >0x50 JTAG> >0x40 JTAG>ETM fitted. >0x40 JTAG> >0x40 JTAG> >0x30 JTAG> >0x40 JTAG> >0x50 JTAG> >0x40 JTAG> >0x40 JTAG> >0x40 JTAG> >0x30 JTAG> >0x40 JTAG> >0x50 JTAG> >0x40 JTAG>  FPUnit: 6 code (BP) slots and 2 literal slots >0x40 JTAG> >0x40 JTAG> >0x30 JTAG> >0x40 JTAG> >0x50 JTAG> >0x40 JTAG> >0x40 JTAG> >0x40 JTAG> >0x30 JTAG> >0x40 JTAG> >0x50 JTAG> >0x40 JTAG> >0x48 JTAG>
 >0x80 JTAG> >0x40 JTAG> >0x40 JTAG> >0x50 JTAG> >0x40 JTAG> >0x40 JTAG> >0x40 JTAG> >0x50 JTAG> >0x40 JTAG> >0x40 JTAG> >0x30 JTAG> >0x40 JTAG> >0x40 JTAG> >0x40 JTAG> >0x40 JTAG> >0x40 JTAG> >0x50 JTAG> >0x40 JTAG> >0x80 JTAG> >0x40 JTAG> >0x30 JTAG> >0x40 JTAG> >0x40 JTAG> >0x40 JTAG> >0x40 JTAG> >0x40 JTAG> >0x50 JTAG> >0x40 JTAG> >0x80 JTAG> >0x40 JTAG> >0x30 JTAG> >0x40 JTAG> >0x50 JTAG> >0x40 JTAG> >0x40 JTAG> >0x40 JTAG> >0x30 JTAG> >0x40 JTAG> >0x50 JTAG> >0x40 JTAG>
Found Cortex-M4 r0p1, Little endian. >0x50 JTAG> >0x50 JTAG> >0x40 JTAG> >0x40 JTAG> >0x30 JTAG> >0x30 JTAG> >0x50 JTAG> >0x40 JTAG> >0x80 JTAG> >0x40 JTAG> >0x30 JTAG> >0x40 JTAG> >0x50 JTAG> >0x40 JTAG> >0x40 JTAG> >0x40 JTAG> >0x30 JTAG> >0x40 JTAG> >0x50 JTAG> >0x40 JTAG>TPIU fitted. >0x40 JTAG> >0x40 JTAG> >0x30 JTAG> >0x40 JTAG> >0x50 JTAG> >0x40 JTAG>ETM fitted. >0x40 JTAG> >0x40 JTAG> >0x30 JTAG> >0x40 JTAG> >0x50 JTAG> >0x40 JTAG> >0x40 JTAG> >0x40 JTAG> >0x30 JTAG> >0x40 JTAG> >0x50 JTAG>
 >0x40 JTAG>  FPUnit: 6 code (BP) slots and 2 literal slots >0x40 JTAG> >0x40 JTAG> >0x30 JTAG> >0x40 JTAG> >0x50 JTAG> >0x40 JTAG> >0x40 JTAG> >0x40 JTAG> >0x30 JTAG> >0x40 JTAG> >0x50 JTAG> >0x40 JTAG> -- CPU is running -- CPU_WriteMem(4 bytes @ 0xE000EDF0) -- CPU is running -- CPU_WriteMem(4 bytes @ 0xE000EDFC) -- CPU is running -- CPU_WriteMem(4 bytes @ 0xE000ED0C) -- CPU is running -- CPU_ReadMem(4 bytes @ 0xE000EDF0) -- CPU is running -- CPU_ReadMem(4 bytes @ 0xE000EDF0) -- CPU is running
 -- CPU_WriteMem(4 bytes @ 0xE000EDF0) -- CPU is running -- CPU_WriteMem(4 bytes @ 0xE000EDFC) -- CPU is running -- CPU_ReadMem(4 bytes @ 0xE000EDF0) >0x90 JTAG> >0x40 JTAG> >0x30 JTAG> >0x40 JTAG> >0x50 JTAG> >0x40 JTAG> -- CPU_WriteMem(4 bytes @ 0xE000EDFC) -- CPU_WriteMem(4 bytes @ 0xE0001028) -- CPU_WriteMem(4 bytes @ 0xE0001038) -- CPU_WriteMem(4 bytes @ 0xE0001048) -- CPU_WriteMem(4 bytes @ 0xE0001058) (0165ms, 0722ms total)
T1178 000:908 JLINK_Halt()  returns 0x00 (0000ms, 0887ms total)
T1178 000:908 JLINK_IsHalted()  returns TRUE (0000ms, 0887ms total)
T1178 000:908 JLINK_ReadMemU32(0xE000EDF0, 0x0001 Items, ...) -- CPU_ReadMem(4 bytes @ 0xE000EDF0) -- Data:  03 00 03 00  returns 0x01 (0001ms, 0887ms total)
T1178 000:909 JLINK_WriteU32(0xE000EDF0, 0xA05F0003) -- CPU_WriteMem(4 bytes @ 0xE000EDF0)  returns 0x00 (0001ms, 0888ms total)
T1178 000:910 JLINK_WriteU32(0xE000EDFC, 0x01000000) -- CPU_WriteMem(4 bytes @ 0xE000EDFC)  returns 0x00 (0000ms, 0889ms total)
T1178 000:920 JLINK_GetHWStatus(...)  returns 0x00 (0001ms, 0889ms total)
T1178 000:930 JLINK_GetNumBPUnits(Type = 0xFFFFFF00)  returns 0x06 (0000ms, 0890ms total)
T1178 000:930 JLINK_GetNumBPUnits(Type = 0xF0)  returns 0x2000 (0000ms, 0890ms total)
T1178 000:930 JLINK_GetNumWPUnits()  returns 0x04 (0000ms, 0890ms total)
T1178 000:936 JLINK_GetSpeed()  returns 0x7D0 (0001ms, 0890ms total)
T1178 000:940 JLINK_ReadMemU32(0xE000E004, 0x0001 Items, ...) -- CPU_ReadMem(4 bytes @ 0xE000E004) -- Data:  02 00 00 00  returns 0x01 (0001ms, 0891ms total)
T1178 000:941 JLINK_ReadMemU32(0xE000E004, 0x0001 Items, ...) -- CPU_ReadMem(4 bytes @ 0xE000E004) -- Data:  02 00 00 00  returns 0x01 (0002ms, 0892ms total)
T1178 000:943 JLINK_WriteMem(0xE0001000, 0x001C Bytes, ...) -- Data:  01 00 00 00 00 00 00 00 00 00 00 00 00 00 00 00 ... -- CPU_WriteMem(28 bytes @ 0xE0001000)  returns 0x1C (0001ms, 0894ms total)
T1178 000:944 JLINK_ReadMem (0xE0001000, 0x001C Bytes, ...) -- CPU_ReadMem(28 bytes @ 0xE0001000) -- Data:  01 00 00 40 00 00 00 00 00 00 00 00 00 00 00 00 ...  returns 0x00 (0001ms, 0895ms total)
T1178 000:945 JLINK_Halt()  returns 0x00 (0000ms, 0896ms total)
T1178 000:945 JLINK_IsHalted()  returns TRUE (0000ms, 0896ms total)
T1178 000:949 JLINK_WriteMem(0x20000000, 0x0180 Bytes, ...) -- Data:  00 BE 0A E0 0D 78 2D 06 68 40 08 24 40 00 00 D3 ... -- CPU_WriteMem(384 bytes @ 0x20000000)  returns 0x180 (0003ms, 0896ms total)
T1178 000:952 JLINK_WriteReg(R0, 0x08000000)  returns 0x00 (0000ms, 0899ms total)
T1178 000:952 JLINK_WriteReg(R1, 0x017D7840)  returns 0x00 (0000ms, 0899ms total)
T1178 000:952 JLINK_WriteReg(R2, 0x00000001)  returns 0x00 (0000ms, 0899ms total)
T1178 000:952 JLINK_WriteReg(R3, 0x00000000)  returns 0x00 (0000ms, 0899ms total)
T1178 000:952 JLINK_WriteReg(R4, 0x00000000)  returns 0x00 (0000ms, 0899ms total)
T1178 000:952 JLINK_WriteReg(R5, 0x00000000)  returns 0x00 (0000ms, 0899ms total)
T1178 000:952 JLINK_WriteReg(R6, 0x00000000)  returns 0x00 (0000ms, 0899ms total)
T1178 000:952 JLINK_WriteReg(R7, 0x00000000)  returns 0x00 (0000ms, 0899ms total)
T1178 000:952 JLINK_WriteReg(R8, 0x00000000)  returns 0x00 (0000ms, 0899ms total)
T1178 000:952 JLINK_WriteReg(R9, 0x2000017C)  returns 0x00 (0000ms, 0899ms total)
T1178 000:952 JLINK_WriteReg(R10, 0x00000000)  returns 0x00 (0000ms, 0899ms total)
T1178 000:952 JLINK_WriteReg(R11, 0x00000000)  returns 0x00 (0000ms, 0899ms total)
T1178 000:952 JLINK_WriteReg(R12, 0x00000000)  returns 0x00 (0000ms, 0899ms total)
T1178 000:952 JLINK_WriteReg(R13, 0x20000800)  returns 0x00 (0000ms, 0899ms total)
T1178 000:952 JLINK_WriteReg(R14, 0x20000001)  returns 0x00 (0000ms, 0899ms total)
T1178 000:952 JLINK_WriteReg(R15, 0x20000054)  returns 0x00 (0000ms, 0899ms total)
T1178 000:952 JLINK_WriteReg(XPSR, 0x01000000)  returns 0x00 (0000ms, 0899ms total)
T1178 000:952 JLINK_WriteReg(MSP, 0x20000800)  returns 0x00 (0000ms, 0899ms total)
T1178 000:952 JLINK_WriteReg(PSP, 0x20000800)  returns 0x00 (0000ms, 0899ms total)
T1178 000:953 JLINK_WriteReg(CFBP, 0x00000000)  returns 0x00 (0000ms, 0899ms total)
T1178 000:953 JLINK_SetBPEx(Addr = 0x20000000, Type = 0xFFFFFFF2) -- CPU_ReadMem(2 bytes @ 0x20000000)  returns 0x00000001 (0000ms, 0899ms total)
T1178 000:954 JLINK_Go() -- CPU_WriteMem(2 bytes @ 0x20000000) -- CPU_WriteMem(4 bytes @ 0xE0002008) -- CPU_WriteMem(4 bytes @ 0xE000200C) -- CPU_WriteMem(4 bytes @ 0xE0002010) -- CPU_WriteMem(4 bytes @ 0xE0002014) -- CPU_WriteMem(4 bytes @ 0xE0002018) -- CPU_WriteMem(4 bytes @ 0xE000201C) (0008ms, 0900ms total)
T1178 000:962 JLINK_IsHalted() -- CPU_ReadMem(2 bytes @ 0x20000000)  returns TRUE (0006ms, 0908ms total)
T1178 000:968 JLINK_ReadReg(R15)  returns 0x20000000 (0000ms, 0908ms total)
T1178 000:968 JLINK_ClrBPEx(BPHandle = 0x00000001)  returns 0x00 (0000ms, 0908ms total)
T1178 000:968 JLINK_ReadReg(R0)  returns 0x00000000 (0000ms, 0908ms total)
T1178 000:968 JLINK_WriteReg(R0, 0x08000000)  returns 0x00 (0001ms, 0908ms total)
T1178 000:969 JLINK_WriteReg(R1, 0x00004000)  returns 0x00 (0000ms, 0909ms total)
T1178 000:969 JLINK_WriteReg(R2, 0x000000FF)  returns 0x00 (0000ms, 0909ms total)
T1178 000:969 JLINK_WriteReg(R3, 0x00000000)  returns 0x00 (0000ms, 0909ms total)
T1178 000:969 JLINK_WriteReg(R4, 0x00000000)  returns 0x00 (0000ms, 0909ms total)
T1178 000:969 JLINK_WriteReg(R5, 0x00000000)  returns 0x00 (0000ms, 0909ms total)
T1178 000:969 JLINK_WriteReg(R6, 0x00000000)  returns 0x00 (0000ms, 0909ms total)
T1178 000:969 JLINK_WriteReg(R7, 0x00000000)  returns 0x00 (0000ms, 0909ms total)
T1178 000:969 JLINK_WriteReg(R8, 0x00000000)  returns 0x00 (0000ms, 0909ms total)
T1178 000:969 JLINK_WriteReg(R9, 0x2000017C)  returns 0x00 (0000ms, 0909ms total)
T1178 000:969 JLINK_WriteReg(R10, 0x00000000)  returns 0x00 (0000ms, 0909ms total)
T1178 000:969 JLINK_WriteReg(R11, 0x00000000)  returns 0x00 (0000ms, 0909ms total)
T1178 000:969 JLINK_WriteReg(R12, 0x00000000)  returns 0x00 (0000ms, 0909ms total)
T1178 000:969 JLINK_WriteReg(R13, 0x20000800)  returns 0x00 (0000ms, 0909ms total)
T1178 000:969 JLINK_WriteReg(R14, 0x20000001)  returns 0x00 (0000ms, 0909ms total)
T1178 000:969 JLINK_WriteReg(R15, 0x20000020)  returns 0x00 (0000ms, 0909ms total)
T1178 000:969 JLINK_WriteReg(XPSR, 0x01000000)  returns 0x00 (0000ms, 0909ms total)
T1178 000:969 JLINK_WriteReg(MSP, 0x20000800)  returns 0x00 (0000ms, 0909ms total)
T1178 000:969 JLINK_WriteReg(PSP, 0x20000800)  returns 0x00 (0000ms, 0909ms total)
T1178 000:969 JLINK_WriteReg(CFBP, 0x00000000)  returns 0x00 (0000ms, 0909ms total)
T1178 000:969 JLINK_SetBPEx(Addr = 0x20000000, Type = 0xFFFFFFF2)  returns 0x00000002 (0000ms, 0909ms total)
T1178 000:969 JLINK_Go() -- CPU_WriteMem(4 bytes @ 0xE0002008) -- CPU_WriteMem(4 bytes @ 0xE000200C) -- CPU_WriteMem(4 bytes @ 0xE0002010) -- CPU_WriteMem(4 bytes @ 0xE0002014) -- CPU_WriteMem(4 bytes @ 0xE0002018) -- CPU_WriteMem(4 bytes @ 0xE000201C) (0007ms, 0909ms total)
T1178 000:976 JLINK_IsHalted() -- CPU_ReadMem(2 bytes @ 0x20000000)  returns TRUE (0007ms, 0916ms total)
T1178 000:983 JLINK_ReadReg(R15)  returns 0x20000000 (0000ms, 0916ms total)
T1178 000:983 JLINK_ClrBPEx(BPHandle = 0x00000002)  returns 0x00 (0000ms, 0916ms total)
T1178 000:983 JLINK_ReadReg(R0)  returns 0x00000001 (0000ms, 0916ms total)
T1178 000:983 JLINK_WriteReg(R0, 0x08000000)  returns 0x00 (0000ms, 0916ms total)
T1178 000:983 JLINK_WriteReg(R1, 0x00004000)  returns 0x00 (0000ms, 0916ms total)
T1178 000:983 JLINK_WriteReg(R2, 0x000000FF)  returns 0x00 (0000ms, 0916ms total)
T1178 000:983 JLINK_WriteReg(R3, 0x00000000)  returns 0x00 (0000ms, 0916ms total)
T1178 000:983 JLINK_WriteReg(R4, 0x00000000)  returns 0x00 (0000ms, 0916ms total)
T1178 000:983 JLINK_WriteReg(R5, 0x00000000)  returns 0x00 (0000ms, 0916ms total)
T1178 000:983 JLINK_WriteReg(R6, 0x00000000)  returns 0x00 (0000ms, 0916ms total)
T1178 000:983 JLINK_WriteReg(R7, 0x00000000)  returns 0x00 (0000ms, 0916ms total)
T1178 000:983 JLINK_WriteReg(R8, 0x00000000)  returns 0x00 (0000ms, 0916ms total)
T1178 000:983 JLINK_WriteReg(R9, 0x2000017C)  returns 0x00 (0000ms, 0916ms total)
T1178 000:983 JLINK_WriteReg(R10, 0x00000000)  returns 0x00 (0000ms, 0916ms total)
T1178 000:983 JLINK_WriteReg(R11, 0x00000000)  returns 0x00 (0000ms, 0916ms total)
T1178 000:983 JLINK_WriteReg(R12, 0x00000000)  returns 0x00 (0000ms, 0916ms total)
T1178 000:983 JLINK_WriteReg(R13, 0x20000800)  returns 0x00 (0000ms, 0916ms total)
T1178 000:983 JLINK_WriteReg(R14, 0x20000001)  returns 0x00 (0000ms, 0916ms total)
T1178 000:984 JLINK_WriteReg(R15, 0x200000BC)  returns 0x00 (0000ms, 0917ms total)
T1178 000:984 JLINK_WriteReg(XPSR, 0x01000000)  returns 0x00 (0000ms, 0917ms total)
T1178 000:984 JLINK_WriteReg(MSP, 0x20000800)  returns 0x00 (0000ms, 0917ms total)
T1178 000:984 JLINK_WriteReg(PSP, 0x20000800)  returns 0x00 (0000ms, 0917ms total)
T1178 000:984 JLINK_WriteReg(CFBP, 0x00000000)  returns 0x00 (0000ms, 0917ms total)
T1178 000:984 JLINK_SetBPEx(Addr = 0x20000000, Type = 0xFFFFFFF2)  returns 0x00000003 (0000ms, 0917ms total)
T1178 000:984 JLINK_Go() -- CPU_WriteMem(4 bytes @ 0xE0002008) -- CPU_WriteMem(4 bytes @ 0xE000200C) -- CPU_WriteMem(4 bytes @ 0xE0002010) -- CPU_WriteMem(4 bytes @ 0xE0002014) -- CPU_WriteMem(4 bytes @ 0xE0002018) -- CPU_WriteMem(4 bytes @ 0xE000201C) (0006ms, 0917ms total)
T1178 000:991 JLINK_IsHalted()  returns FALSE (0000ms, 0924ms total)
T1178 001:041 JLINK_IsHalted()  returns FALSE (0001ms, 0924ms total)
T1178 001:092 JLINK_IsHalted()  returns FALSE (0000ms, 0924ms total)
T1178 001:142 JLINK_IsHalted()  returns FALSE (0001ms, 0924ms total)
T1178 001:193 JLINK_IsHalted()  returns FALSE (0001ms, 0924ms total)
T1178 001:244 JLINK_IsHalted()  returns FALSE (0001ms, 0924ms total)
T1178 001:295 JLINK_IsHalted()  returns FALSE (0001ms, 0924ms total)
T1178 001:346 JLINK_IsHalted()  returns FALSE (0001ms, 0924ms total)
T1178 001:397 JLINK_IsHalted() -- CPU_ReadMem(2 bytes @ 0x20000000)  returns TRUE (0006ms, 0924ms total)
T1178 001:403 JLINK_ReadReg(R15)  returns 0x20000000 (0000ms, 0924ms total)
T1178 001:403 JLINK_ClrBPEx(BPHandle = 0x00000003)  returns 0x00 (0000ms, 0924ms total)
T1178 001:403 JLINK_ReadReg(R0)  returns 0x00000000 (0000ms, 0924ms total)
T1178 001:404 JLINK_WriteReg(R0, 0x08004000)  returns 0x00 (0000ms, 0924ms total)
T1178 001:404 JLINK_WriteReg(R1, 0x00004000)  returns 0x00 (0000ms, 0924ms total)
T1178 001:404 JLINK_WriteReg(R2, 0x000000FF)  returns 0x00 (0000ms, 0924ms total)
T1178 001:404 JLINK_WriteReg(R3, 0x00000000)  returns 0x00 (0000ms, 0924ms total)
T1178 001:404 JLINK_WriteReg(R4, 0x00000000)  returns 0x00 (0000ms, 0924ms total)
T1178 001:404 JLINK_WriteReg(R5, 0x00000000)  returns 0x00 (0000ms, 0924ms total)
T1178 001:404 JLINK_WriteReg(R6, 0x00000000)  returns 0x00 (0000ms, 0924ms total)
T1178 001:404 JLINK_WriteReg(R7, 0x00000000)  returns 0x00 (0000ms, 0924ms total)
T1178 001:404 JLINK_WriteReg(R8, 0x00000000)  returns 0x00 (0000ms, 0924ms total)
T1178 001:404 JLINK_WriteReg(R9, 0x2000017C)  returns 0x00 (0000ms, 0924ms total)
T1178 001:404 JLINK_WriteReg(R10, 0x00000000)  returns 0x00 (0000ms, 0924ms total)
T1178 001:404 JLINK_WriteReg(R11, 0x00000000)  returns 0x00 (0000ms, 0924ms total)
T1178 001:404 JLINK_WriteReg(R12, 0x00000000)  returns 0x00 (0000ms, 0924ms total)
T1178 001:404 JLINK_WriteReg(R13, 0x20000800)  returns 0x00 (0000ms, 0924ms total)
T1178 001:404 JLINK_WriteReg(R14, 0x20000001)  returns 0x00 (0000ms, 0924ms total)
T1178 001:404 JLINK_WriteReg(R15, 0x20000020)  returns 0x00 (0000ms, 0924ms total)
T1178 001:404 JLINK_WriteReg(XPSR, 0x01000000)  returns 0x00 (0000ms, 0924ms total)
T1178 001:404 JLINK_WriteReg(MSP, 0x20000800)  returns 0x00 (0000ms, 0924ms total)
T1178 001:404 JLINK_WriteReg(PSP, 0x20000800)  returns 0x00 (0000ms, 0924ms total)
T1178 001:404 JLINK_WriteReg(CFBP, 0x00000000)  returns 0x00 (0000ms, 0924ms total)
T1178 001:404 JLINK_SetBPEx(Addr = 0x20000000, Type = 0xFFFFFFF2)  returns 0x00000004 (0000ms, 0924ms total)
T1178 001:404 JLINK_Go() -- CPU_WriteMem(4 bytes @ 0xE0002008) -- CPU_WriteMem(4 bytes @ 0xE000200C) -- CPU_WriteMem(4 bytes @ 0xE0002010) -- CPU_WriteMem(4 bytes @ 0xE0002014) -- CPU_WriteMem(4 bytes @ 0xE0002018) -- CPU_WriteMem(4 bytes @ 0xE000201C) (0009ms, 0924ms total)
T1178 001:413 JLINK_IsHalted() -- CPU_ReadMem(2 bytes @ 0x20000000)  returns TRUE (0006ms, 0933ms total)
T1178 001:419 JLINK_ReadReg(R15)  returns 0x20000000 (0000ms, 0933ms total)
T1178 001:419 JLINK_ClrBPEx(BPHandle = 0x00000004)  returns 0x00 (0000ms, 0933ms total)
T1178 001:419 JLINK_ReadReg(R0)  returns 0x00000001 (0000ms, 0933ms total)
T1178 001:419 JLINK_WriteReg(R0, 0x08004000)  returns 0x00 (0000ms, 0933ms total)
T1178 001:419 JLINK_WriteReg(R1, 0x00004000)  returns 0x00 (0000ms, 0933ms total)
T1178 001:419 JLINK_WriteReg(R2, 0x000000FF)  returns 0x00 (0000ms, 0933ms total)
T1178 001:419 JLINK_WriteReg(R3, 0x00000000)  returns 0x00 (0000ms, 0933ms total)
T1178 001:419 JLINK_WriteReg(R4, 0x00000000)  returns 0x00 (0000ms, 0933ms total)
T1178 001:419 JLINK_WriteReg(R5, 0x00000000)  returns 0x00 (0000ms, 0933ms total)
T1178 001:419 JLINK_WriteReg(R6, 0x00000000)  returns 0x00 (0000ms, 0933ms total)
T1178 001:419 JLINK_WriteReg(R7, 0x00000000)  returns 0x00 (0000ms, 0933ms total)
T1178 001:419 JLINK_WriteReg(R8, 0x00000000)  returns 0x00 (0000ms, 0933ms total)
T1178 001:419 JLINK_WriteReg(R9, 0x2000017C)  returns 0x00 (0000ms, 0933ms total)
T1178 001:419 JLINK_WriteReg(R10, 0x00000000)  returns 0x00 (0000ms, 0933ms total)
T1178 001:419 JLINK_WriteReg(R11, 0x00000000)  returns 0x00 (0000ms, 0933ms total)
T1178 001:419 JLINK_WriteReg(R12, 0x00000000)  returns 0x00 (0000ms, 0933ms total)
T1178 001:419 JLINK_WriteReg(R13, 0x20000800)  returns 0x00 (0001ms, 0933ms total)
T1178 001:420 JLINK_WriteReg(R14, 0x20000001)  returns 0x00 (0000ms, 0934ms total)
T1178 001:420 JLINK_WriteReg(R15, 0x200000BC)  returns 0x00 (0000ms, 0934ms total)
T1178 001:420 JLINK_WriteReg(XPSR, 0x01000000)  returns 0x00 (0000ms, 0934ms total)
T1178 001:420 JLINK_WriteReg(MSP, 0x20000800)  returns 0x00 (0000ms, 0934ms total)
T1178 001:420 JLINK_WriteReg(PSP, 0x20000800)  returns 0x00 (0000ms, 0934ms total)
T1178 001:420 JLINK_WriteReg(CFBP, 0x00000000)  returns 0x00 (0000ms, 0934ms total)
T1178 001:420 JLINK_SetBPEx(Addr = 0x20000000, Type = 0xFFFFFFF2)  returns 0x00000005 (0000ms, 0934ms total)
T1178 001:420 JLINK_Go() -- CPU_WriteMem(4 bytes @ 0xE0002008) -- CPU_WriteMem(4 bytes @ 0xE000200C) -- CPU_WriteMem(4 bytes @ 0xE0002010) -- CPU_WriteMem(4 bytes @ 0xE0002014) -- CPU_WriteMem(4 bytes @ 0xE0002018) -- CPU_WriteMem(4 bytes @ 0xE000201C) (0007ms, 0934ms total)
T1178 001:427 JLINK_IsHalted()  returns FALSE (0001ms, 0941ms total)
T1178 001:478 JLINK_IsHalted()  returns FALSE (0001ms, 0941ms total)
T1178 001:529 JLINK_IsHalted()  returns FALSE (0001ms, 0941ms total)
T1178 001:580 JLINK_IsHalted()  returns FALSE (0001ms, 0941ms total)
T1178 001:631 JLINK_IsHalted()  returns FALSE (0001ms, 0941ms total)
T1178 001:682 JLINK_IsHalted()  returns FALSE (0000ms, 0941ms total)
T1178 001:732 JLINK_IsHalted()  returns FALSE (0001ms, 0941ms total)
T1178 001:783 JLINK_IsHalted()  returns FALSE (0000ms, 0941ms total)
T1178 001:833 JLINK_IsHalted() -- CPU_ReadMem(2 bytes @ 0x20000000)  returns TRUE (0007ms, 0941ms total)
T1178 001:840 JLINK_ReadReg(R15)  returns 0x20000000 (0000ms, 0941ms total)
T1178 001:840 JLINK_ClrBPEx(BPHandle = 0x00000005)  returns 0x00 (0000ms, 0941ms total)
T1178 001:840 JLINK_ReadReg(R0)  returns 0x00000000 (0000ms, 0941ms total)
T1178 001:841 JLINK_WriteReg(R0, 0x00000001)  returns 0x00 (0000ms, 0941ms total)
T1178 001:841 JLINK_WriteReg(R1, 0x00004000)  returns 0x00 (0000ms, 0941ms total)
T1178 001:841 JLINK_WriteReg(R2, 0x000000FF)  returns 0x00 (0000ms, 0941ms total)
T1178 001:841 JLINK_WriteReg(R3, 0x00000000)  returns 0x00 (0000ms, 0941ms total)
T1178 001:841 JLINK_WriteReg(R4, 0x00000000)  returns 0x00 (0000ms, 0941ms total)
T1178 001:841 JLINK_WriteReg(R5, 0x00000000)  returns 0x00 (0000ms, 0941ms total)
T1178 001:841 JLINK_WriteReg(R6, 0x00000000)  returns 0x00 (0000ms, 0941ms total)
T1178 001:841 JLINK_WriteReg(R7, 0x00000000)  returns 0x00 (0000ms, 0941ms total)
T1178 001:841 JLINK_WriteReg(R8, 0x00000000)  returns 0x00 (0000ms, 0941ms total)
T1178 001:841 JLINK_WriteReg(R9, 0x2000017C)  returns 0x00 (0000ms, 0941ms total)
T1178 001:841 JLINK_WriteReg(R10, 0x00000000)  returns 0x00 (0000ms, 0941ms total)
T1178 001:841 JLINK_WriteReg(R11, 0x00000000)  returns 0x00 (0000ms, 0941ms total)
T1178 001:841 JLINK_WriteReg(R12, 0x00000000)  returns 0x00 (0000ms, 0941ms total)
T1178 001:841 JLINK_WriteReg(R13, 0x20000800)  returns 0x00 (0000ms, 0941ms total)
T1178 001:841 JLINK_WriteReg(R14, 0x20000001)  returns 0x00 (0000ms, 0941ms total)
T1178 001:841 JLINK_WriteReg(R15, 0x20000082)  returns 0x00 (0000ms, 0941ms total)
T1178 001:841 JLINK_WriteReg(XPSR, 0x01000000)  returns 0x00 (0000ms, 0941ms total)
T1178 001:841 JLINK_WriteReg(MSP, 0x20000800)  returns 0x00 (0001ms, 0941ms total)
T1178 001:842 JLINK_WriteReg(PSP, 0x20000800)  returns 0x00 (0000ms, 0942ms total)
T1178 001:842 JLINK_WriteReg(CFBP, 0x00000000)  returns 0x00 (0000ms, 0942ms total)
T1178 001:842 JLINK_SetBPEx(Addr = 0x20000000, Type = 0xFFFFFFF2)  returns 0x00000006 (0000ms, 0942ms total)
T1178 001:842 JLINK_Go() -- CPU_WriteMem(4 bytes @ 0xE0002008) -- CPU_WriteMem(4 bytes @ 0xE000200C) -- CPU_WriteMem(4 bytes @ 0xE0002010) -- CPU_WriteMem(4 bytes @ 0xE0002014) -- CPU_WriteMem(4 bytes @ 0xE0002018) -- CPU_WriteMem(4 bytes @ 0xE000201C) (0007ms, 0942ms total)
T1178 001:849 JLINK_IsHalted() -- CPU_ReadMem(2 bytes @ 0x20000000)  returns TRUE (0007ms, 0949ms total)
T1178 001:856 JLINK_ReadReg(R15)  returns 0x20000000 (0000ms, 0949ms total)
T1178 001:856 JLINK_ClrBPEx(BPHandle = 0x00000006)  returns 0x00 (0000ms, 0949ms total)
T1178 001:856 JLINK_ReadReg(R0)  returns 0x00000000 (0000ms, 0949ms total)
T1178 002:053 JLINK_WriteMem(0x20000000, 0x0180 Bytes, ...) -- Data:  00 BE 0A E0 0D 78 2D 06 68 40 08 24 40 00 00 D3 ... -- CPU_WriteMem(384 bytes @ 0x20000000)  returns 0x180 (0004ms, 0949ms total)
T1178 002:057 JLINK_WriteReg(R0, 0x08000000)  returns 0x00 (0000ms, 0953ms total)
T1178 002:057 JLINK_WriteReg(R1, 0x017D7840)  returns 0x00 (0000ms, 0953ms total)
T1178 002:057 JLINK_WriteReg(R2, 0x00000002)  returns 0x00 (0000ms, 0953ms total)
T1178 002:057 JLINK_WriteReg(R3, 0x00000000)  returns 0x00 (0000ms, 0953ms total)
T1178 002:057 JLINK_WriteReg(R4, 0x00000000)  returns 0x00 (0000ms, 0953ms total)
T1178 002:058 JLINK_WriteReg(R5, 0x00000000)  returns 0x00 (0000ms, 0954ms total)
T1178 002:058 JLINK_WriteReg(R6, 0x00000000)  returns 0x00 (0000ms, 0954ms total)
T1178 002:058 JLINK_WriteReg(R7, 0x00000000)  returns 0x00 (0000ms, 0954ms total)
T1178 002:058 JLINK_WriteReg(R8, 0x00000000)  returns 0x00 (0000ms, 0954ms total)
T1178 002:058 JLINK_WriteReg(R9, 0x2000017C)  returns 0x00 (0000ms, 0954ms total)
T1178 002:058 JLINK_WriteReg(R10, 0x00000000)  returns 0x00 (0000ms, 0954ms total)
T1178 002:058 JLINK_WriteReg(R11, 0x00000000)  returns 0x00 (0000ms, 0954ms total)
T1178 002:058 JLINK_WriteReg(R12, 0x00000000)  returns 0x00 (0000ms, 0954ms total)
T1178 002:058 JLINK_WriteReg(R13, 0x20000800)  returns 0x00 (0000ms, 0954ms total)
T1178 002:058 JLINK_WriteReg(R14, 0x20000001)  returns 0x00 (0000ms, 0954ms total)
T1178 002:058 JLINK_WriteReg(R15, 0x20000054)  returns 0x00 (0000ms, 0954ms total)
T1178 002:058 JLINK_WriteReg(XPSR, 0x01000000)  returns 0x00 (0000ms, 0954ms total)
T1178 002:058 JLINK_WriteReg(MSP, 0x20000800)  returns 0x00 (0000ms, 0954ms total)
T1178 002:058 JLINK_WriteReg(PSP, 0x20000800)  returns 0x00 (0000ms, 0954ms total)
T1178 002:058 JLINK_WriteReg(CFBP, 0x00000000)  returns 0x00 (0000ms, 0954ms total)
T1178 002:058 JLINK_SetBPEx(Addr = 0x20000000, Type = 0xFFFFFFF2) -- CPU_ReadMem(2 bytes @ 0x20000000)  returns 0x00000007 (0001ms, 0954ms total)
T1178 002:059 JLINK_Go() -- CPU_WriteMem(2 bytes @ 0x20000000) -- CPU_WriteMem(4 bytes @ 0xE0002008) -- CPU_WriteMem(4 bytes @ 0xE000200C) -- CPU_WriteMem(4 bytes @ 0xE0002010) -- CPU_WriteMem(4 bytes @ 0xE0002014) -- CPU_WriteMem(4 bytes @ 0xE0002018) -- CPU_WriteMem(4 bytes @ 0xE000201C) (0008ms, 0955ms total)
T1178 002:067 JLINK_IsHalted() -- CPU_ReadMem(2 bytes @ 0x20000000)  returns TRUE (0007ms, 0963ms total)
T1178 002:074 JLINK_ReadReg(R15)  returns 0x20000000 (0000ms, 0963ms total)
T1178 002:074 JLINK_ClrBPEx(BPHandle = 0x00000007)  returns 0x00 (0000ms, 0963ms total)
T1178 002:074 JLINK_ReadReg(R0)  returns 0x00000000 (0000ms, 0963ms total)
T1178 002:074 JLINK_WriteMem(0x20000180, 0x0400 Bytes, ...) -- Data:  C8 1E 00 20 9D 01 00 08 0F 15 00 08 7B 0D 00 08 ... -- CPU_WriteMem(1024 bytes @ 0x20000180)  returns 0x400 (0007ms, 0963ms total)
T1178 002:081 JLINK_WriteReg(R0, 0x08000000)  returns 0x00 (0001ms, 0970ms total)
T1178 002:082 JLINK_WriteReg(R1, 0x00000400)  returns 0x00 (0000ms, 0971ms total)
T1178 002:082 JLINK_WriteReg(R2, 0x20000180)  returns 0x00 (0000ms, 0971ms total)
T1178 002:082 JLINK_WriteReg(R3, 0x00000000)  returns 0x00 (0000ms, 0971ms total)
T1178 002:082 JLINK_WriteReg(R4, 0x00000000)  returns 0x00 (0000ms, 0971ms total)
T1178 002:082 JLINK_WriteReg(R5, 0x00000000)  returns 0x00 (0000ms, 0971ms total)
T1178 002:082 JLINK_WriteReg(R6, 0x00000000)  returns 0x00 (0000ms, 0971ms total)
T1178 002:082 JLINK_WriteReg(R7, 0x00000000)  returns 0x00 (0000ms, 0971ms total)
T1178 002:082 JLINK_WriteReg(R8, 0x00000000)  returns 0x00 (0000ms, 0971ms total)
T1178 002:082 JLINK_WriteReg(R9, 0x2000017C)  returns 0x00 (0000ms, 0971ms total)
T1178 002:082 JLINK_WriteReg(R10, 0x00000000)  returns 0x00 (0000ms, 0971ms total)
T1178 002:082 JLINK_WriteReg(R11, 0x00000000)  returns 0x00 (0000ms, 0971ms total)
T1178 002:082 JLINK_WriteReg(R12, 0x00000000)  returns 0x00 (0000ms, 0971ms total)
T1178 002:082 JLINK_WriteReg(R13, 0x20000800)  returns 0x00 (0000ms, 0971ms total)
T1178 002:082 JLINK_WriteReg(R14, 0x20000001)  returns 0x00 (0000ms, 0971ms total)
T1178 002:082 JLINK_WriteReg(R15, 0x20000108)  returns 0x00 (0000ms, 0971ms total)
T1178 002:082 JLINK_WriteReg(XPSR, 0x01000000)  returns 0x00 (0000ms, 0971ms total)
T1178 002:082 JLINK_WriteReg(MSP, 0x20000800)  returns 0x00 (0000ms, 0971ms total)
T1178 002:082 JLINK_WriteReg(PSP, 0x20000800)  returns 0x00 (0000ms, 0971ms total)
T1178 002:082 JLINK_WriteReg(CFBP, 0x00000000)  returns 0x00 (0000ms, 0971ms total)
T1178 002:082 JLINK_SetBPEx(Addr = 0x20000000, Type = 0xFFFFFFF2)  returns 0x00000008 (0000ms, 0971ms total)
T1178 002:082 JLINK_Go() -- CPU_WriteMem(4 bytes @ 0xE0002008) -- CPU_WriteMem(4 bytes @ 0xE000200C) -- CPU_WriteMem(4 bytes @ 0xE0002010) -- CPU_WriteMem(4 bytes @ 0xE0002014) -- CPU_WriteMem(4 bytes @ 0xE0002018) -- CPU_WriteMem(4 bytes @ 0xE000201C) (0008ms, 0971ms total)
T1178 002:090 JLINK_IsHalted()  returns FALSE (0001ms, 0979ms total)
T1178 002:141 JLINK_IsHalted() -- CPU_ReadMem(2 bytes @ 0x20000000)  returns TRUE (0006ms, 0979ms total)
T1178 002:147 JLINK_ReadReg(R15)  returns 0x20000000 (0000ms, 0979ms total)
T1178 002:147 JLINK_ClrBPEx(BPHandle = 0x00000008)  returns 0x00 (0000ms, 0979ms total)
T1178 002:147 JLINK_ReadReg(R0)  returns 0x00000000 (0000ms, 0979ms total)
T1178 002:148 JLINK_WriteMem(0x20000180, 0x0400 Bytes, ...) -- Data:  0A 46 10 B5 09 06 02 F0 7F 03 06 D5 03 EB 83 01 ... -- CPU_WriteMem(1024 bytes @ 0x20000180)  returns 0x400 (0007ms, 0979ms total)
T1178 002:155 JLINK_WriteReg(R0, 0x08000400)  returns 0x00 (0000ms, 0986ms total)
T1178 002:155 JLINK_WriteReg(R1, 0x00000400)  returns 0x00 (0000ms, 0986ms total)
T1178 002:155 JLINK_WriteReg(R2, 0x20000180)  returns 0x00 (0000ms, 0986ms total)
T1178 002:155 JLINK_WriteReg(R3, 0x00000000)  returns 0x00 (0000ms, 0986ms total)
T1178 002:155 JLINK_WriteReg(R4, 0x00000000)  returns 0x00 (0000ms, 0986ms total)
T1178 002:155 JLINK_WriteReg(R5, 0x00000000)  returns 0x00 (0000ms, 0986ms total)
T1178 002:155 JLINK_WriteReg(R6, 0x00000000)  returns 0x00 (0000ms, 0986ms total)
T1178 002:155 JLINK_WriteReg(R7, 0x00000000)  returns 0x00 (0000ms, 0986ms total)
T1178 002:155 JLINK_WriteReg(R8, 0x00000000)  returns 0x00 (0000ms, 0986ms total)
T1178 002:155 JLINK_WriteReg(R9, 0x2000017C)  returns 0x00 (0000ms, 0986ms total)
T1178 002:155 JLINK_WriteReg(R10, 0x00000000)  returns 0x00 (0000ms, 0986ms total)
T1178 002:155 JLINK_WriteReg(R11, 0x00000000)  returns 0x00 (0000ms, 0986ms total)
T1178 002:155 JLINK_WriteReg(R12, 0x00000000)  returns 0x00 (0000ms, 0986ms total)
T1178 002:155 JLINK_WriteReg(R13, 0x20000800)  returns 0x00 (0000ms, 0986ms total)
T1178 002:155 JLINK_WriteReg(R14, 0x20000001)  returns 0x00 (0000ms, 0986ms total)
T1178 002:155 JLINK_WriteReg(R15, 0x20000108)  returns 0x00 (0000ms, 0986ms total)
T1178 002:155 JLINK_WriteReg(XPSR, 0x01000000)  returns 0x00 (0000ms, 0986ms total)
T1178 002:155 JLINK_WriteReg(MSP, 0x20000800)  returns 0x00 (0000ms, 0986ms total)
T1178 002:155 JLINK_WriteReg(PSP, 0x20000800)  returns 0x00 (0000ms, 0986ms total)
T1178 002:155 JLINK_WriteReg(CFBP, 0x00000000)  returns 0x00 (0000ms, 0986ms total)
T1178 002:155 JLINK_SetBPEx(Addr = 0x20000000, Type = 0xFFFFFFF2)  returns 0x00000009 (0000ms, 0986ms total)
T1178 002:155 JLINK_Go() -- CPU_WriteMem(4 bytes @ 0xE0002008) -- CPU_WriteMem(4 bytes @ 0xE000200C) -- CPU_WriteMem(4 bytes @ 0xE0002010) -- CPU_WriteMem(4 bytes @ 0xE0002014) -- CPU_WriteMem(4 bytes @ 0xE0002018) -- CPU_WriteMem(4 bytes @ 0xE000201C) (0008ms, 0986ms total)
T1178 002:163 JLINK_IsHalted()  returns FALSE (0001ms, 0994ms total)
T1178 002:214 JLINK_IsHalted() -- CPU_ReadMem(2 bytes @ 0x20000000)  returns TRUE (0006ms, 0994ms total)
T1178 002:220 JLINK_ReadReg(R15)  returns 0x20000000 (0000ms, 0994ms total)
T1178 002:220 JLINK_ClrBPEx(BPHandle = 0x00000009)  returns 0x00 (0000ms, 0994ms total)
T1178 002:220 JLINK_ReadReg(R0)  returns 0x00000000 (0000ms, 0994ms total)
T1178 002:221 JLINK_WriteMem(0x20000180, 0x0400 Bytes, ...) -- Data:  0E E0 00 BF 00 EB 80 01 04 EB C1 01 01 F5 5D 71 ... -- CPU_WriteMem(1024 bytes @ 0x20000180)  returns 0x400 (0007ms, 0994ms total)
T1178 002:228 JLINK_WriteReg(R0, 0x08000800)  returns 0x00 (0000ms, 1001ms total)
T1178 002:228 JLINK_WriteReg(R1, 0x00000400)  returns 0x00 (0000ms, 1001ms total)
T1178 002:228 JLINK_WriteReg(R2, 0x20000180)  returns 0x00 (0000ms, 1001ms total)
T1178 002:228 JLINK_WriteReg(R3, 0x00000000)  returns 0x00 (0000ms, 1001ms total)
T1178 002:228 JLINK_WriteReg(R4, 0x00000000)  returns 0x00 (0000ms, 1001ms total)
T1178 002:228 JLINK_WriteReg(R5, 0x00000000)  returns 0x00 (0000ms, 1001ms total)
T1178 002:228 JLINK_WriteReg(R6, 0x00000000)  returns 0x00 (0000ms, 1001ms total)
T1178 002:228 JLINK_WriteReg(R7, 0x00000000)  returns 0x00 (0000ms, 1001ms total)
T1178 002:228 JLINK_WriteReg(R8, 0x00000000)  returns 0x00 (0000ms, 1001ms total)
T1178 002:228 JLINK_WriteReg(R9, 0x2000017C)  returns 0x00 (0000ms, 1001ms total)
T1178 002:228 JLINK_WriteReg(R10, 0x00000000)  returns 0x00 (0000ms, 1001ms total)
T1178 002:228 JLINK_WriteReg(R11, 0x00000000)  returns 0x00 (0000ms, 1001ms total)
T1178 002:228 JLINK_WriteReg(R12, 0x00000000)  returns 0x00 (0000ms, 1001ms total)
T1178 002:228 JLINK_WriteReg(R13, 0x20000800)  returns 0x00 (0000ms, 1001ms total)
T1178 002:229 JLINK_WriteReg(R14, 0x20000001)  returns 0x00 (0000ms, 1002ms total)
T1178 002:229 JLINK_WriteReg(R15, 0x20000108)  returns 0x00 (0000ms, 1002ms total)
T1178 002:229 JLINK_WriteReg(XPSR, 0x01000000)  returns 0x00 (0000ms, 1002ms total)
T1178 002:229 JLINK_WriteReg(MSP, 0x20000800)  returns 0x00 (0000ms, 1002ms total)
T1178 002:229 JLINK_WriteReg(PSP, 0x20000800)  returns 0x00 (0000ms, 1002ms total)
T1178 002:229 JLINK_WriteReg(CFBP, 0x00000000)  returns 0x00 (0000ms, 1002ms total)
T1178 002:229 JLINK_SetBPEx(Addr = 0x20000000, Type = 0xFFFFFFF2)  returns 0x0000000A (0000ms, 1002ms total)
T1178 002:229 JLINK_Go() -- CPU_WriteMem(4 bytes @ 0xE0002008) -- CPU_WriteMem(4 bytes @ 0xE000200C) -- CPU_WriteMem(4 bytes @ 0xE0002010) -- CPU_WriteMem(4 bytes @ 0xE0002014) -- CPU_WriteMem(4 bytes @ 0xE0002018) -- CPU_WriteMem(4 bytes @ 0xE000201C) (0007ms, 1002ms total)
T1178 002:236 JLINK_IsHalted()  returns FALSE (0001ms, 1009ms total)
T1178 002:287 JLINK_IsHalted() -- CPU_ReadMem(2 bytes @ 0x20000000)  returns TRUE (0006ms, 1009ms total)
T1178 002:293 JLINK_ReadReg(R15)  returns 0x20000000 (0000ms, 1009ms total)
T1178 002:293 JLINK_ClrBPEx(BPHandle = 0x0000000A)  returns 0x00 (0000ms, 1009ms total)
T1178 002:293 JLINK_ReadReg(R0)  returns 0x00000000 (0000ms, 1009ms total)
T1178 002:294 JLINK_WriteMem(0x20000180, 0x0400 Bytes, ...) -- Data:  00 1A 30 21 81 60 02 21 C0 E9 03 17 01 21 41 61 ... -- CPU_WriteMem(1024 bytes @ 0x20000180)  returns 0x400 (0007ms, 1009ms total)
T1178 002:301 JLINK_WriteReg(R0, 0x08000C00)  returns 0x00 (0001ms, 1016ms total)
T1178 002:302 JLINK_WriteReg(R1, 0x00000400)  returns 0x00 (0000ms, 1017ms total)
T1178 002:302 JLINK_WriteReg(R2, 0x20000180)  returns 0x00 (0000ms, 1017ms total)
T1178 002:302 JLINK_WriteReg(R3, 0x00000000)  returns 0x00 (0000ms, 1017ms total)
T1178 002:302 JLINK_WriteReg(R4, 0x00000000)  returns 0x00 (0000ms, 1017ms total)
T1178 002:302 JLINK_WriteReg(R5, 0x00000000)  returns 0x00 (0000ms, 1017ms total)
T1178 002:302 JLINK_WriteReg(R6, 0x00000000)  returns 0x00 (0000ms, 1017ms total)
T1178 002:302 JLINK_WriteReg(R7, 0x00000000)  returns 0x00 (0000ms, 1017ms total)
T1178 002:302 JLINK_WriteReg(R8, 0x00000000)  returns 0x00 (0000ms, 1017ms total)
T1178 002:302 JLINK_WriteReg(R9, 0x2000017C)  returns 0x00 (0000ms, 1017ms total)
T1178 002:302 JLINK_WriteReg(R10, 0x00000000)  returns 0x00 (0000ms, 1017ms total)
T1178 002:302 JLINK_WriteReg(R11, 0x00000000)  returns 0x00 (0000ms, 1017ms total)
T1178 002:302 JLINK_WriteReg(R12, 0x00000000)  returns 0x00 (0000ms, 1017ms total)
T1178 002:302 JLINK_WriteReg(R13, 0x20000800)  returns 0x00 (0000ms, 1017ms total)
T1178 002:302 JLINK_WriteReg(R14, 0x20000001)  returns 0x00 (0000ms, 1017ms total)
T1178 002:302 JLINK_WriteReg(R15, 0x20000108)  returns 0x00 (0000ms, 1017ms total)
T1178 002:302 JLINK_WriteReg(XPSR, 0x01000000)  returns 0x00 (0000ms, 1017ms total)
T1178 002:302 JLINK_WriteReg(MSP, 0x20000800)  returns 0x00 (0000ms, 1017ms total)
T1178 002:302 JLINK_WriteReg(PSP, 0x20000800)  returns 0x00 (0000ms, 1017ms total)
T1178 002:302 JLINK_WriteReg(CFBP, 0x00000000)  returns 0x00 (0000ms, 1017ms total)
T1178 002:302 JLINK_SetBPEx(Addr = 0x20000000, Type = 0xFFFFFFF2)  returns 0x0000000B (0000ms, 1017ms total)
T1178 002:302 JLINK_Go() -- CPU_WriteMem(4 bytes @ 0xE0002008) -- CPU_WriteMem(4 bytes @ 0xE000200C) -- CPU_WriteMem(4 bytes @ 0xE0002010) -- CPU_WriteMem(4 bytes @ 0xE0002014) -- CPU_WriteMem(4 bytes @ 0xE0002018) -- CPU_WriteMem(4 bytes @ 0xE000201C) (0008ms, 1017ms total)
T1178 002:310 JLINK_IsHalted()  returns FALSE (0001ms, 1025ms total)
T1178 002:361 JLINK_IsHalted() -- CPU_ReadMem(2 bytes @ 0x20000000)  returns TRUE (0006ms, 1025ms total)
T1178 002:367 JLINK_ReadReg(R15)  returns 0x20000000 (0000ms, 1025ms total)
T1178 002:367 JLINK_ClrBPEx(BPHandle = 0x0000000B)  returns 0x00 (0000ms, 1025ms total)
T1178 002:367 JLINK_ReadReg(R0)  returns 0x00000000 (0000ms, 1025ms total)
T1178 002:368 JLINK_WriteMem(0x20000180, 0x0400 Bytes, ...) -- Data:  DA D8 6D 1C AD B2 51 46 28 46 00 F0 35 F9 76 1C ... -- CPU_WriteMem(1024 bytes @ 0x20000180)  returns 0x400 (0008ms, 1025ms total)
T1178 002:376 JLINK_WriteReg(R0, 0x08001000)  returns 0x00 (0000ms, 1033ms total)
T1178 002:376 JLINK_WriteReg(R1, 0x00000400)  returns 0x00 (0000ms, 1033ms total)
T1178 002:376 JLINK_WriteReg(R2, 0x20000180)  returns 0x00 (0000ms, 1033ms total)
T1178 002:376 JLINK_WriteReg(R3, 0x00000000)  returns 0x00 (0000ms, 1033ms total)
T1178 002:376 JLINK_WriteReg(R4, 0x00000000)  returns 0x00 (0000ms, 1033ms total)
T1178 002:376 JLINK_WriteReg(R5, 0x00000000)  returns 0x00 (0000ms, 1033ms total)
T1178 002:376 JLINK_WriteReg(R6, 0x00000000)  returns 0x00 (0000ms, 1033ms total)
T1178 002:376 JLINK_WriteReg(R7, 0x00000000)  returns 0x00 (0000ms, 1033ms total)
T1178 002:376 JLINK_WriteReg(R8, 0x00000000)  returns 0x00 (0000ms, 1033ms total)
T1178 002:376 JLINK_WriteReg(R9, 0x2000017C)  returns 0x00 (0000ms, 1033ms total)
T1178 002:376 JLINK_WriteReg(R10, 0x00000000)  returns 0x00 (0000ms, 1033ms total)
T1178 002:376 JLINK_WriteReg(R11, 0x00000000)  returns 0x00 (0000ms, 1033ms total)
T1178 002:376 JLINK_WriteReg(R12, 0x00000000)  returns 0x00 (0000ms, 1033ms total)
T1178 002:376 JLINK_WriteReg(R13, 0x20000800)  returns 0x00 (0000ms, 1033ms total)
T1178 002:376 JLINK_WriteReg(R14, 0x20000001)  returns 0x00 (0000ms, 1033ms total)
T1178 002:376 JLINK_WriteReg(R15, 0x20000108)  returns 0x00 (0000ms, 1033ms total)
T1178 002:376 JLINK_WriteReg(XPSR, 0x01000000)  returns 0x00 (0000ms, 1033ms total)
T1178 002:376 JLINK_WriteReg(MSP, 0x20000800)  returns 0x00 (0000ms, 1033ms total)
T1178 002:376 JLINK_WriteReg(PSP, 0x20000800)  returns 0x00 (0000ms, 1033ms total)
T1178 002:376 JLINK_WriteReg(CFBP, 0x00000000)  returns 0x00 (0000ms, 1033ms total)
T1178 002:376 JLINK_SetBPEx(Addr = 0x20000000, Type = 0xFFFFFFF2)  returns 0x0000000C (0000ms, 1033ms total)
T1178 002:376 JLINK_Go() -- CPU_WriteMem(4 bytes @ 0xE0002008) -- CPU_WriteMem(4 bytes @ 0xE000200C) -- CPU_WriteMem(4 bytes @ 0xE0002010) -- CPU_WriteMem(4 bytes @ 0xE0002014) -- CPU_WriteMem(4 bytes @ 0xE0002018) -- CPU_WriteMem(4 bytes @ 0xE000201C) (0008ms, 1033ms total)
T1178 002:384 JLINK_IsHalted()  returns FALSE (0001ms, 1041ms total)
T1178 002:435 JLINK_IsHalted() -- CPU_ReadMem(2 bytes @ 0x20000000)  returns TRUE (0006ms, 1041ms total)
T1178 002:441 JLINK_ReadReg(R15)  returns 0x20000000 (0000ms, 1041ms total)
T1178 002:441 JLINK_ClrBPEx(BPHandle = 0x0000000C)  returns 0x00 (0000ms, 1041ms total)
T1178 002:441 JLINK_ReadReg(R0)  returns 0x00000000 (0000ms, 1041ms total)
T1178 002:442 JLINK_WriteMem(0x20000180, 0x0400 Bytes, ...) -- Data:  0F 02 41 7B 20 46 00 F0 15 F9 00 28 05 DA 01 21 ... -- CPU_WriteMem(1024 bytes @ 0x20000180)  returns 0x400 (0007ms, 1041ms total)
T1178 002:449 JLINK_WriteReg(R0, 0x08001400)  returns 0x00 (0000ms, 1048ms total)
T1178 002:449 JLINK_WriteReg(R1, 0x00000400)  returns 0x00 (0000ms, 1048ms total)
T1178 002:449 JLINK_WriteReg(R2, 0x20000180)  returns 0x00 (0000ms, 1048ms total)
T1178 002:449 JLINK_WriteReg(R3, 0x00000000)  returns 0x00 (0000ms, 1048ms total)
T1178 002:449 JLINK_WriteReg(R4, 0x00000000)  returns 0x00 (0000ms, 1048ms total)
T1178 002:449 JLINK_WriteReg(R5, 0x00000000)  returns 0x00 (0000ms, 1048ms total)
T1178 002:449 JLINK_WriteReg(R6, 0x00000000)  returns 0x00 (0000ms, 1048ms total)
T1178 002:449 JLINK_WriteReg(R7, 0x00000000)  returns 0x00 (0000ms, 1048ms total)
T1178 002:449 JLINK_WriteReg(R8, 0x00000000)  returns 0x00 (0000ms, 1048ms total)
T1178 002:449 JLINK_WriteReg(R9, 0x2000017C)  returns 0x00 (0000ms, 1048ms total)
T1178 002:449 JLINK_WriteReg(R10, 0x00000000)  returns 0x00 (0000ms, 1048ms total)
T1178 002:449 JLINK_WriteReg(R11, 0x00000000)  returns 0x00 (0000ms, 1048ms total)
T1178 002:449 JLINK_WriteReg(R12, 0x00000000)  returns 0x00 (0000ms, 1048ms total)
T1178 002:449 JLINK_WriteReg(R13, 0x20000800)  returns 0x00 (0000ms, 1048ms total)
T1178 002:449 JLINK_WriteReg(R14, 0x20000001)  returns 0x00 (0000ms, 1048ms total)
T1178 002:449 JLINK_WriteReg(R15, 0x20000108)  returns 0x00 (0001ms, 1048ms total)
T1178 002:450 JLINK_WriteReg(XPSR, 0x01000000)  returns 0x00 (0000ms, 1049ms total)
T1178 002:450 JLINK_WriteReg(MSP, 0x20000800)  returns 0x00 (0000ms, 1049ms total)
T1178 002:450 JLINK_WriteReg(PSP, 0x20000800)  returns 0x00 (0000ms, 1049ms total)
T1178 002:450 JLINK_WriteReg(CFBP, 0x00000000)  returns 0x00 (0000ms, 1049ms total)
T1178 002:450 JLINK_SetBPEx(Addr = 0x20000000, Type = 0xFFFFFFF2)  returns 0x0000000D (0000ms, 1049ms total)
T1178 002:450 JLINK_Go() -- CPU_WriteMem(4 bytes @ 0xE0002008) -- CPU_WriteMem(4 bytes @ 0xE000200C) -- CPU_WriteMem(4 bytes @ 0xE0002010) -- CPU_WriteMem(4 bytes @ 0xE0002014) -- CPU_WriteMem(4 bytes @ 0xE0002018) -- CPU_WriteMem(4 bytes @ 0xE000201C) (0008ms, 1049ms total)
T1178 002:458 JLINK_IsHalted()  returns FALSE (0001ms, 1057ms total)
T1178 002:509 JLINK_IsHalted() -- CPU_ReadMem(2 bytes @ 0x20000000)  returns TRUE (0006ms, 1057ms total)
T1178 002:515 JLINK_ReadReg(R15)  returns 0x20000000 (0000ms, 1057ms total)
T1178 002:515 JLINK_ClrBPEx(BPHandle = 0x0000000D)  returns 0x00 (0000ms, 1057ms total)
T1178 002:515 JLINK_ReadReg(R0)  returns 0x00000000 (0000ms, 1057ms total)
T1178 002:516 JLINK_WriteMem(0x20000180, 0x0400 Bytes, ...) -- Data:  F4 07 00 20 14 18 00 20 D4 00 00 20 2D E9 F0 41 ... -- CPU_WriteMem(1024 bytes @ 0x20000180)  returns 0x400 (0007ms, 1057ms total)
T1178 002:523 JLINK_WriteReg(R0, 0x08001800)  returns 0x00 (0000ms, 1064ms total)
T1178 002:523 JLINK_WriteReg(R1, 0x00000400)  returns 0x00 (0000ms, 1064ms total)
T1178 002:523 JLINK_WriteReg(R2, 0x20000180)  returns 0x00 (0000ms, 1064ms total)
T1178 002:523 JLINK_WriteReg(R3, 0x00000000)  returns 0x00 (0000ms, 1064ms total)
T1178 002:523 JLINK_WriteReg(R4, 0x00000000)  returns 0x00 (0000ms, 1064ms total)
T1178 002:523 JLINK_WriteReg(R5, 0x00000000)  returns 0x00 (0000ms, 1064ms total)
T1178 002:524 JLINK_WriteReg(R6, 0x00000000)  returns 0x00 (0000ms, 1065ms total)
T1178 002:524 JLINK_WriteReg(R7, 0x00000000)  returns 0x00 (0000ms, 1065ms total)
T1178 002:524 JLINK_WriteReg(R8, 0x00000000)  returns 0x00 (0000ms, 1065ms total)
T1178 002:524 JLINK_WriteReg(R9, 0x2000017C)  returns 0x00 (0000ms, 1065ms total)
T1178 002:524 JLINK_WriteReg(R10, 0x00000000)  returns 0x00 (0000ms, 1065ms total)
T1178 002:524 JLINK_WriteReg(R11, 0x00000000)  returns 0x00 (0000ms, 1065ms total)
T1178 002:524 JLINK_WriteReg(R12, 0x00000000)  returns 0x00 (0000ms, 1065ms total)
T1178 002:524 JLINK_WriteReg(R13, 0x20000800)  returns 0x00 (0000ms, 1065ms total)
T1178 002:524 JLINK_WriteReg(R14, 0x20000001)  returns 0x00 (0000ms, 1065ms total)
T1178 002:524 JLINK_WriteReg(R15, 0x20000108)  returns 0x00 (0000ms, 1065ms total)
T1178 002:524 JLINK_WriteReg(XPSR, 0x01000000)  returns 0x00 (0000ms, 1065ms total)
T1178 002:524 JLINK_WriteReg(MSP, 0x20000800)  returns 0x00 (0000ms, 1065ms total)
T1178 002:524 JLINK_WriteReg(PSP, 0x20000800)  returns 0x00 (0000ms, 1065ms total)
T1178 002:524 JLINK_WriteReg(CFBP, 0x00000000)  returns 0x00 (0000ms, 1065ms total)
T1178 002:524 JLINK_SetBPEx(Addr = 0x20000000, Type = 0xFFFFFFF2)  returns 0x0000000E (0000ms, 1065ms total)
T1178 002:524 JLINK_Go() -- CPU_WriteMem(4 bytes @ 0xE0002008) -- CPU_WriteMem(4 bytes @ 0xE000200C) -- CPU_WriteMem(4 bytes @ 0xE0002010) -- CPU_WriteMem(4 bytes @ 0xE0002014) -- CPU_WriteMem(4 bytes @ 0xE0002018) -- CPU_WriteMem(4 bytes @ 0xE000201C) (0007ms, 1065ms total)
T1178 002:531 JLINK_IsHalted()  returns FALSE (0001ms, 1072ms total)
T1178 002:582 JLINK_IsHalted() -- CPU_ReadMem(2 bytes @ 0x20000000)  returns TRUE (0006ms, 1072ms total)
T1178 002:588 JLINK_ReadReg(R15)  returns 0x20000000 (0000ms, 1072ms total)
T1178 002:588 JLINK_ClrBPEx(BPHandle = 0x0000000E)  returns 0x00 (0000ms, 1072ms total)
T1178 002:588 JLINK_ReadReg(R0)  returns 0x00000000 (0000ms, 1072ms total)
T1178 002:589 JLINK_WriteMem(0x20000180, 0x0400 Bytes, ...) -- Data:  C5 E9 00 10 09 48 C5 E9 03 67 00 F0 9F F8 37 20 ... -- CPU_WriteMem(1024 bytes @ 0x20000180)  returns 0x400 (0007ms, 1072ms total)
T1178 002:596 JLINK_WriteReg(R0, 0x08001C00)  returns 0x00 (0000ms, 1079ms total)
T1178 002:596 JLINK_WriteReg(R1, 0x00000400)  returns 0x00 (0000ms, 1079ms total)
T1178 002:596 JLINK_WriteReg(R2, 0x20000180)  returns 0x00 (0000ms, 1079ms total)
T1178 002:596 JLINK_WriteReg(R3, 0x00000000)  returns 0x00 (0000ms, 1079ms total)
T1178 002:596 JLINK_WriteReg(R4, 0x00000000)  returns 0x00 (0000ms, 1079ms total)
T1178 002:596 JLINK_WriteReg(R5, 0x00000000)  returns 0x00 (0000ms, 1079ms total)
T1178 002:596 JLINK_WriteReg(R6, 0x00000000)  returns 0x00 (0000ms, 1079ms total)
T1178 002:596 JLINK_WriteReg(R7, 0x00000000)  returns 0x00 (0000ms, 1079ms total)
T1178 002:596 JLINK_WriteReg(R8, 0x00000000)  returns 0x00 (0000ms, 1079ms total)
T1178 002:596 JLINK_WriteReg(R9, 0x2000017C)  returns 0x00 (0000ms, 1079ms total)
T1178 002:596 JLINK_WriteReg(R10, 0x00000000)  returns 0x00 (0000ms, 1079ms total)
T1178 002:596 JLINK_WriteReg(R11, 0x00000000)  returns 0x00 (0000ms, 1079ms total)
T1178 002:596 JLINK_WriteReg(R12, 0x00000000)  returns 0x00 (0000ms, 1079ms total)
T1178 002:596 JLINK_WriteReg(R13, 0x20000800)  returns 0x00 (0000ms, 1079ms total)
T1178 002:596 JLINK_WriteReg(R14, 0x20000001)  returns 0x00 (0000ms, 1079ms total)
T1178 002:596 JLINK_WriteReg(R15, 0x20000108)  returns 0x00 (0000ms, 1079ms total)
T1178 002:596 JLINK_WriteReg(XPSR, 0x01000000)  returns 0x00 (0000ms, 1079ms total)
T1178 002:596 JLINK_WriteReg(MSP, 0x20000800)  returns 0x00 (0000ms, 1079ms total)
T1178 002:596 JLINK_WriteReg(PSP, 0x20000800)  returns 0x00 (0000ms, 1079ms total)
T1178 002:597 JLINK_WriteReg(CFBP, 0x00000000)  returns 0x00 (0000ms, 1079ms total)
T1178 002:597 JLINK_SetBPEx(Addr = 0x20000000, Type = 0xFFFFFFF2)  returns 0x0000000F (0000ms, 1079ms total)
